T25B8 000:045.945   SEGGER J-Link V7.84 Log File
T25B8 000:046.737   DLL Compiled: Dec 14 2022 15:54:51
T25B8 000:047.470   Logging started @ 2024-05-07 03:13
T25B8 000:048.895 - 49.260ms
T25B8 000:049.609 JLINK_SetWarnOutHandler(...)
T25B8 000:050.258 - 0.924ms
T25B8 000:050.822 JLINK_OpenEx(...)
T25B8 000:054.672   Firmware: J-Link Pro V4 compiled Sep 22 2022 15:00:37
T25B8 000:056.876   Firmware: J-Link Pro V4 compiled Sep 22 2022 15:00:37
T25B8 000:057.923   Decompressing FW timestamp took 99 us
T25B8 000:060.821   Hardware: V4.00
T25B8 000:061.649   S/N: 174504230
T25B8 000:062.299   OEM: SEGGER
T25B8 000:062.919   Feature(s): RDI, FlashBP, FlashDL, JFlash, GDB
T25B8 000:064.560   TELNET listener socket opened on port 19021
T25B8 000:065.285   WEBSRV WEBSRV_Init(): Starting webserver thread(s)
T25B8 000:066.153   WEBSRV Webserver running on local port 19080
T25B8 000:070.056 - 19.495ms returns "O.K."
T25B8 000:070.528 JLINK_GetEmuCaps()
T25B8 000:070.971 - 0.704ms returns 0xB9FF7BBF
T25B8 000:071.418 JLINK_TIF_GetAvailable(...)
T25B8 000:072.046 - 0.812ms
T25B8 000:072.429 JLINK_SetErrorOutHandler(...)
T25B8 000:072.865 - 0.663ms
T25B8 000:073.301 JLINK_ExecCommand("ProjectFile = "Y:\GD32F103C8T6-SPL\Project-MDK\JLinkSettings.ini"", ...). 
T25B8 000:090.124   Ref file found at: C:\Keil_v5\ARM\Segger\JLinkDevices.ref
T25B8 000:091.458   REF file references invalid XML file: C:\Program Files\SEGGER\JLink\JLinkDevices.xml
T25B8 000:093.184 - 20.276ms returns 0x00
T25B8 000:096.060 JLINK_ExecCommand("Device = GD32F103C8", ...). 
T25B8 000:098.704   Device "GD32F103C8" selected.
T25B8 000:099.915 - 3.570ms returns 0x00
T25B8 000:100.570 JLINK_ExecCommand("DisableConnectionTimeout", ...). 
T25B8 000:101.178 - 0.292ms returns 0x01
T25B8 000:101.738 JLINK_GetHardwareVersion()
T25B8 000:102.232 - 0.728ms returns 40000
T25B8 000:102.737 JLINK_GetDLLVersion()
T25B8 000:103.247 - 0.766ms returns 78400
T25B8 000:103.762 JLINK_GetOEMString(...)
T25B8 000:104.228 JLINK_GetFirmwareString(...)
T25B8 000:104.688 - 0.692ms
T25B8 000:110.905 JLINK_GetDLLVersion()
T25B8 000:111.416 - 0.784ms returns 78400
T25B8 000:111.947 JLINK_GetCompileDateTime()
T25B8 000:112.417 - 0.701ms
T25B8 000:114.792 JLINK_GetFirmwareString(...)
T25B8 000:115.264 - 0.730ms
T25B8 000:117.669 JLINK_GetHardwareVersion()
T25B8 000:118.123 - 0.718ms returns 40000
T25B8 000:120.493 JLINK_GetSN()
T25B8 000:121.040 - 0.750ms returns 174504230
T25B8 000:123.322 JLINK_GetOEMString(...)
T25B8 000:128.094 JLINK_TIF_Select(JLINKARM_TIF_SWD)
T25B8 000:129.858 - 2.092ms returns 0x00
T25B8 000:130.467 JLINK_HasError()
T25B8 000:131.010 JLINK_SetSpeed(5000)
T25B8 000:131.539 - 0.738ms
T25B8 000:131.980 JLINK_GetId()
T25B8 000:135.015   Found SW-DP with ID 0x1BA01477
T25B8 000:139.806   DPIDR: 0x1BA01477
T25B8 000:143.985   CoreSight SoC-400 or earlier
T25B8 000:151.002   Scanning AP map to find all available APs
T25B8 000:155.472   AP[1]: Stopped AP scan as end of AP map has been reached
T25B8 000:158.314   AP[0]: AHB-AP (IDR: 0x24770011)
T25B8 000:161.471   Iterating through AP map to find AHB-AP to use
T25B8 000:164.895   AP[0]: Core found
T25B8 000:167.706   AP[0]: AHB-AP ROM base: 0xE00FF000
T25B8 000:170.800   CPUID register: 0x412FC231. Implementer code: 0x41 (ARM)
T25B8 000:173.808   Found Cortex-M3 r2p1, Little endian.
T25B8 000:175.753   -- Max. mem block: 0x0000CDF0
T25B8 000:177.044   CPU_ReadMem(4 bytes @ 0xE000EDF0)
T25B8 000:177.992   CPU_WriteMem(4 bytes @ 0xE000EDF0)
T25B8 000:178.973   CPU_ReadMem(4 bytes @ 0xE0002000)
T25B8 000:181.941   FPUnit: 6 code (BP) slots and 2 literal slots
T25B8 000:182.758   CPU_ReadMem(4 bytes @ 0xE000EDFC)
T25B8 000:183.692   CPU_WriteMem(4 bytes @ 0xE000EDFC)
T25B8 000:184.662   CPU_ReadMem(4 bytes @ 0xE0001000)
T25B8 000:188.147   CPU_WriteMem(4 bytes @ 0xE0001000)
T25B8 000:189.110   CPU_ReadMem(4 bytes @ 0xE000ED88)
T25B8 000:189.989   CPU_WriteMem(4 bytes @ 0xE000ED88)
T25B8 000:190.978   CPU_ReadMem(4 bytes @ 0xE000ED88)
T25B8 000:191.911   CPU_WriteMem(4 bytes @ 0xE000ED88)
T25B8 000:194.866   CoreSight components:
T25B8 000:197.397   ROMTbl[0] @ E00FF000
T25B8 000:198.167   CPU_ReadMem(64 bytes @ 0xE00FF000)
T25B8 000:199.253   CPU_ReadMem(32 bytes @ 0xE000EFE0)
T25B8 000:202.102   [0][0]: E000E000 CID B105E00D PID 000BB000 SCS
T25B8 000:203.379   CPU_ReadMem(32 bytes @ 0xE0001FE0)
T25B8 000:206.659   [0][1]: E0001000 CID B105E00D PID 003BB002 DWT
T25B8 000:207.292   CPU_ReadMem(32 bytes @ 0xE0002FE0)
T25B8 000:210.354   [0][2]: E0002000 CID B105E00D PID 002BB003 FPB
T25B8 000:211.064   CPU_ReadMem(32 bytes @ 0xE0000FE0)
T25B8 000:213.995   [0][3]: E0000000 CID B105E00D PID 003BB001 ITM
T25B8 000:214.690   CPU_ReadMem(32 bytes @ 0xE0040FE0)
T25B8 000:217.629   [0][4]: E0040000 CID B105900D PID 003BB923 TPIU-Lite
T25B8 000:218.595 - 86.867ms returns 0x1BA01477
T25B8 000:219.084 JLINK_GetDLLVersion()
T25B8 000:219.548 - 0.697ms returns 78400
T25B8 000:220.016 JLINK_CORE_GetFound()
T25B8 000:220.475 - 0.689ms returns 0x30000FF
T25B8 000:220.912 JLINK_GetDebugInfo(0x100 = JLINKARM_ROM_TABLE_ADDR_INDEX)
T25B8 000:221.343   Value=0xE00FF000
T25B8 000:221.977 - 1.306ms returns 0
T25B8 000:224.498 JLINK_GetDebugInfo(0x100 = JLINKARM_ROM_TABLE_ADDR_INDEX)
T25B8 000:224.851   Value=0xE00FF000
T25B8 000:225.516 - 1.230ms returns 0
T25B8 000:226.057 JLINK_GetDebugInfo(0x101 = JLINKARM_DEBUG_INFO_ETM_ADDR_INDEX)
T25B8 000:226.539   Value=0x00000000
T25B8 000:227.144 - 1.300ms returns 0
T25B8 000:227.675 JLINK_ReadMemEx(0xE0041FF0, 0x10 Bytes, Flags = 0x02000004)
T25B8 000:228.090   CPU_ReadMem(16 bytes @ 0xE0041FF0)
T25B8 000:229.008   Data:  00 00 00 00 00 00 00 00 00 00 00 00 00 00 00 00
T25B8 000:229.564 - 2.092ms returns 16 (0x10)
T25B8 000:229.972 JLINK_GetDebugInfo(0x102 = JLINKARM_DEBUG_INFO_MTB_ADDR_INDEX)
T25B8 000:230.436   Value=0x00000000
T25B8 000:231.186 - 1.414ms returns 0
T25B8 000:231.594 JLINK_GetDebugInfo(0x103 = JLINKARM_DEBUG_INFO_TPIU_ADDR_INDEX)
T25B8 000:231.996   Value=0xE0040000
T25B8 000:232.580 - 1.191ms returns 0
T25B8 000:233.396 JLINK_GetDebugInfo(0x104 = JLINKARM_DEBUG_INFO_ITM_ADDR_INDEX)
T25B8 000:234.457   Value=0xE0000000
T25B8 000:235.104 - 1.908ms returns 0
T25B8 000:235.512 JLINK_GetDebugInfo(0x105 = JLINKARM_DEBUG_INFO_DWT_ADDR_INDEX)
T25B8 000:236.088   Value=0xE0001000
T25B8 000:236.995 - 1.769ms returns 0
T25B8 000:237.577 JLINK_GetDebugInfo(0x106 = JLINKARM_DEBUG_INFO_FPB_ADDR_INDEX)
T25B8 000:237.977   Value=0xE0002000
T25B8 000:238.614 - 1.237ms returns 0
T25B8 000:239.023 JLINK_GetDebugInfo(0x107 = JLINKARM_DEBUG_INFO_NVIC_ADDR_INDEX)
T25B8 000:239.423   Value=0xE000E000
T25B8 000:240.034 - 1.217ms returns 0
T25B8 000:240.475 JLINK_GetDebugInfo(0x10C = JLINKARM_DEBUG_INFO_DBG_ADDR_INDEX)
T25B8 000:240.897   Value=0xE000EDF0
T25B8 000:241.667 - 1.434ms returns 0
T25B8 000:242.167 JLINK_GetDebugInfo(0x01 = Unknown)
T25B8 000:242.616   Value=0x00000000
T25B8 000:243.190 - 1.214ms returns 0
T25B8 000:243.574 JLINK_ReadMemU32(0xE000ED00, 0x1 Items)
T25B8 000:243.963   CPU_ReadMem(4 bytes @ 0xE000ED00)
T25B8 000:244.900   Data:  31 C2 2F 41
T25B8 000:245.474   Debug reg: CPUID
T25B8 000:246.075 - 2.691ms returns 1 (0x1)
T25B8 000:246.645 JLINK_GetDebugInfo(0x10F = JLINKARM_DEBUG_INFO_HAS_CORTEX_M_SECURITY_EXT_INDEX)
T25B8 000:247.023   Value=0x00000000
T25B8 000:247.594 - 1.142ms returns 0
T25B8 000:247.983 JLINK_HasError()
T25B8 000:248.783 JLINK_SetResetType(JLINKARM_CM3_RESET_TYPE_NORMAL)
T25B8 000:249.160 - 0.566ms returns JLINKARM_CM3_RESET_TYPE_NORMAL
T25B8 000:249.543 JLINK_Reset()
T25B8 000:249.933   CPU is running
T25B8 000:250.497   CPU_WriteMem(4 bytes @ 0xE000EDF0)
T25B8 000:251.454   CPU is running
T25B8 000:252.210   CPU_WriteMem(4 bytes @ 0xE000EDFC)
T25B8 000:255.485   Reset: Halt core after reset via DEMCR.VC_CORERESET.
T25B8 000:258.452   Reset: Reset device via AIRCR.SYSRESETREQ.
T25B8 000:259.184   CPU is running
T25B8 000:259.851   CPU_WriteMem(4 bytes @ 0xE000ED0C)
T25B8 000:314.510   CPU_ReadMem(4 bytes @ 0xE000EDF0)
T25B8 000:316.211   CPU_ReadMem(4 bytes @ 0xE000EDF0)
T25B8 000:320.325   CPU_WriteMem(4 bytes @ 0xE000EDFC)
T25B8 000:326.596   CPU_ReadMem(4 bytes @ 0xE000EDF0)
T25B8 000:329.779   CPU_WriteMem(4 bytes @ 0xE0002000)
T25B8 000:330.875   CPU_ReadMem(4 bytes @ 0xE000EDFC)
T25B8 000:331.868   CPU_ReadMem(4 bytes @ 0xE0001000)
T25B8 000:332.787 - 83.492ms
T25B8 000:333.273 JLINK_Halt()
T25B8 000:333.729 - 0.684ms returns 0x00
T25B8 000:334.193 JLINK_ReadMemU32(0xE000EDF0, 0x1 Items)
T25B8 000:334.661   CPU_ReadMem(4 bytes @ 0xE000EDF0)
T25B8 000:335.608   Data:  03 00 03 00
T25B8 000:336.203   Debug reg: DHCSR
T25B8 000:336.904 - 2.993ms returns 1 (0x1)
T25B8 000:338.198 JLINK_WriteU32_64(0xE000EDF0, 0xA05F0003)
T25B8 000:338.619   Debug reg: DHCSR
T25B8 000:339.490   CPU_WriteMem(4 bytes @ 0xE000EDF0)
T25B8 000:340.397 - 2.403ms returns 0 (0x00000000)
T25B8 000:340.801 JLINK_WriteU32_64(0xE000EDFC, 0x01000000)
T25B8 000:341.269   Debug reg: DEMCR
T25B8 000:341.905   CPU_WriteMem(4 bytes @ 0xE000EDFC)
T25B8 000:342.809 - 2.227ms returns 0 (0x00000000)
T25B8 000:351.433 JLINK_GetHWStatus(...)
T25B8 000:352.101 - 0.886ms returns 0
T25B8 000:358.155 JLINK_GetNumBPUnits(Type = 0xFFFFFF00)
T25B8 000:358.734 - 0.854ms returns 0x06
T25B8 000:359.268 JLINK_GetNumBPUnits(Type = 0xF0)
T25B8 000:359.788 - 0.715ms returns 0x2000
T25B8 000:360.214 JLINK_GetNumWPUnits()
T25B8 000:360.913 - 1.027ms returns 4
T25B8 000:367.338 JLINK_GetSpeed()
T25B8 000:368.618 - 1.551ms returns 5000
T25B8 000:372.862 JLINK_ReadMemU32(0xE000E004, 0x1 Items)
T25B8 000:373.476   CPU_ReadMem(4 bytes @ 0xE000E004)
T25B8 000:374.540   Data:  01 00 00 00
T25B8 000:375.959 - 3.387ms returns 1 (0x1)
T25B8 000:376.482 JLINK_ReadMemU32(0xE000E004, 0x1 Items)
T25B8 000:376.948   CPU_ReadMem(4 bytes @ 0xE000E004)
T25B8 000:377.918   Data:  01 00 00 00
T25B8 000:378.632 - 2.382ms returns 1 (0x1)
T25B8 000:379.099 JLINK_WriteMemEx(0xE0001000, 0x0000001C Bytes, Flags = 0x02000004)
T25B8 000:379.559   Data:  01 00 00 00 00 00 00 00 00 00 00 00 00 00 00 00 ...
T25B8 000:380.261   CPU_WriteMem(28 bytes @ 0xE0001000)
T25B8 000:381.292 - 2.430ms returns 0x1C
T25B8 000:381.754 JLINK_Halt()
T25B8 000:382.221 - 0.685ms returns 0x00
T25B8 000:382.646 JLINK_IsHalted()
T25B8 000:383.377 - 0.929ms returns TRUE
T25B8 000:386.210 JLINK_WriteMem(0x20000000, 0x13C Bytes, ...)
T25B8 000:386.703   Data:  00 BE 0A E0 0D 78 2D 06 68 40 08 24 40 00 00 D3 ...
T25B8 000:387.543   CPU_WriteMem(316 bytes @ 0x20000000)
T25B8 000:389.453 - 3.438ms returns 0x13C
T25B8 000:389.896 JLINK_HasError()
T25B8 000:390.302 JLINK_WriteReg(R0, 0x08000000)
T25B8 000:390.770 - 0.664ms returns 0
T25B8 000:391.170 JLINK_WriteReg(R1, 0x00B71B00)
T25B8 000:391.636 - 0.680ms returns 0
T25B8 000:392.049 JLINK_WriteReg(R2, 0x00000001)
T25B8 000:392.849 - 0.999ms returns 0
T25B8 000:393.251 JLINK_WriteReg(R3, 0x00000000)
T25B8 000:393.657 - 0.609ms returns 0
T25B8 000:394.073 JLINK_WriteReg(R4, 0x00000000)
T25B8 000:394.487 - 0.614ms returns 0
T25B8 000:394.892 JLINK_WriteReg(R5, 0x00000000)
T25B8 000:395.320 - 0.665ms returns 0
T25B8 000:395.840 JLINK_WriteReg(R6, 0x00000000)
T25B8 000:396.272 - 0.635ms returns 0
T25B8 000:396.697 JLINK_WriteReg(R7, 0x00000000)
T25B8 000:397.120 - 0.626ms returns 0
T25B8 000:397.529 JLINK_WriteReg(R8, 0x00000000)
T25B8 000:397.933 - 0.612ms returns 0
T25B8 000:398.385 JLINK_WriteReg(R9, 0x20000134)
T25B8 000:398.943 - 0.759ms returns 0
T25B8 000:399.350 JLINK_WriteReg(R10, 0x00000000)
T25B8 000:399.752 - 0.787ms returns 0
T25B8 000:400.473 JLINK_WriteReg(R11, 0x00000000)
T25B8 000:400.873 - 0.604ms returns 0
T25B8 000:401.284 JLINK_WriteReg(R12, 0x00000000)
T25B8 000:401.836 - 0.754ms returns 0
T25B8 000:402.263 JLINK_WriteReg(R13 (SP), 0x20001000)
T25B8 000:402.806 - 0.802ms returns 0
T25B8 000:403.305 JLINK_WriteReg(R14, 0x20000001)
T25B8 000:404.244 - 1.492ms returns 0
T25B8 000:405.120 JLINK_WriteReg(R15 (PC), 0x20000038)
T25B8 000:405.683 - 0.763ms returns 0
T25B8 000:406.124 JLINK_WriteReg(XPSR, 0x01000000)
T25B8 000:406.521 - 0.597ms returns 0
T25B8 000:406.928 JLINK_WriteReg(MSP, 0x20001000)
T25B8 000:407.335 - 0.608ms returns 0
T25B8 000:407.926 JLINK_WriteReg(PSP, 0x20001000)
T25B8 000:408.914 - 1.280ms returns 0
T25B8 000:409.406 JLINK_WriteReg(CFBP, 0x00000000)
T25B8 000:409.814 - 0.734ms returns 0
T25B8 000:410.340 JLINK_SetBPEx(Addr = 0x20000000, Type = 0xFFFFFFF2)
T25B8 000:410.757   CPU_ReadMem(2 bytes @ 0x20000000)
T25B8 000:411.748 - 1.557ms returns 0x00000001
T25B8 000:412.097 JLINK_Go()
T25B8 000:412.506   CPU_WriteMem(2 bytes @ 0x20000000)
T25B8 000:413.419   CPU_ReadMem(4 bytes @ 0xE0001000)
T25B8 000:414.463   CPU_WriteMem(4 bytes @ 0xE0002008)
T25B8 000:415.024   CPU_WriteMem(4 bytes @ 0xE000200C)
T25B8 000:415.691   CPU_WriteMem(4 bytes @ 0xE0002010)
T25B8 000:416.454   CPU_WriteMem(4 bytes @ 0xE0002014)
T25B8 000:417.048   CPU_WriteMem(4 bytes @ 0xE0002018)
T25B8 000:417.667   CPU_WriteMem(4 bytes @ 0xE000201C)
T25B8 000:419.262   CPU_WriteMem(4 bytes @ 0xE0001004)
T25B8 000:422.008 - 10.066ms
T25B8 000:422.362 JLINK_IsHalted()
T25B8 000:424.531   CPU_ReadMem(2 bytes @ 0x20000000)
T25B8 000:425.649 - 3.524ms returns TRUE
T25B8 000:426.087 JLINK_ReadReg(R15 (PC))
T25B8 000:426.576 - 0.711ms returns 0x20000000
T25B8 000:427.031 JLINK_ClrBPEx(BPHandle = 0x00000001)
T25B8 000:427.493 - 0.741ms returns 0x00
T25B8 000:428.101 JLINK_ReadReg(R0)
T25B8 000:428.772 - 1.081ms returns 0x00000000
T25B8 000:429.843 JLINK_HasError()
T25B8 000:430.292 JLINK_WriteReg(R0, 0x08000000)
T25B8 000:430.774 - 0.679ms returns 0
T25B8 000:431.211 JLINK_WriteReg(R1, 0x00000400)
T25B8 000:431.612 - 0.603ms returns 0
T25B8 000:432.021 JLINK_WriteReg(R2, 0x000000FF)
T25B8 000:432.564 - 0.739ms returns 0
T25B8 000:432.965 JLINK_WriteReg(R3, 0x00000000)
T25B8 000:433.382 - 0.731ms returns 0
T25B8 000:433.895 JLINK_WriteReg(R4, 0x00000000)
T25B8 000:434.308 - 0.614ms returns 0
T25B8 000:434.714 JLINK_WriteReg(R5, 0x00000000)
T25B8 000:435.426 - 0.926ms returns 0
T25B8 000:436.015 JLINK_WriteReg(R6, 0x00000000)
T25B8 000:436.455 - 0.639ms returns 0
T25B8 000:436.860 JLINK_WriteReg(R7, 0x00000000)
T25B8 000:437.265 - 0.724ms returns 0
T25B8 000:437.799 JLINK_WriteReg(R8, 0x00000000)
T25B8 000:438.275 - 0.675ms returns 0
T25B8 000:438.678 JLINK_WriteReg(R9, 0x20000134)
T25B8 000:439.096 - 0.732ms returns 0
T25B8 000:439.607 JLINK_WriteReg(R10, 0x00000000)
T25B8 000:440.016 - 0.621ms returns 0
T25B8 000:440.434 JLINK_WriteReg(R11, 0x00000000)
T25B8 000:441.053 - 0.915ms returns 0
T25B8 000:441.874 JLINK_WriteReg(R12, 0x00000000)
T25B8 000:442.736 - 1.059ms returns 0
T25B8 000:443.137 JLINK_WriteReg(R13 (SP), 0x20001000)
T25B8 000:443.544 - 0.730ms returns 0
T25B8 000:444.064 JLINK_WriteReg(R14, 0x20000001)
T25B8 000:444.471 - 0.615ms returns 0
T25B8 000:445.001 JLINK_WriteReg(R15 (PC), 0x20000020)
T25B8 000:445.412 - 0.608ms returns 0
T25B8 000:445.815 JLINK_WriteReg(XPSR, 0x01000000)
T25B8 000:446.337 - 0.718ms returns 0
T25B8 000:446.738 JLINK_WriteReg(MSP, 0x20001000)
T25B8 000:447.149 - 0.745ms returns 0
T25B8 000:447.682 JLINK_WriteReg(PSP, 0x20001000)
T25B8 000:448.088 - 0.607ms returns 0
T25B8 000:448.493 JLINK_WriteReg(CFBP, 0x00000000)
T25B8 000:448.886 - 0.584ms returns 0
T25B8 000:449.279 JLINK_SetBPEx(Addr = 0x20000000, Type = 0xFFFFFFF2)
T25B8 000:450.041 - 1.133ms returns 0x00000002
T25B8 000:450.790 JLINK_Go()
T25B8 000:451.553   CPU_ReadMem(4 bytes @ 0xE0001000)
T25B8 000:454.885 - 4.278ms
T25B8 000:455.303 JLINK_IsHalted()
T25B8 000:457.570   CPU_ReadMem(2 bytes @ 0x20000000)
T25B8 000:458.558 - 3.502ms returns TRUE
T25B8 000:459.049 JLINK_ReadReg(R15 (PC))
T25B8 000:459.513 - 0.694ms returns 0x20000000
T25B8 000:459.980 JLINK_ClrBPEx(BPHandle = 0x00000002)
T25B8 000:460.442 - 0.692ms returns 0x00
T25B8 000:460.907 JLINK_ReadReg(R0)
T25B8 000:461.368 - 0.691ms returns 0x00000001
T25B8 000:461.830 JLINK_HasError()
T25B8 000:462.265 JLINK_WriteReg(R0, 0x08000000)
T25B8 000:462.665 - 0.603ms returns 0
T25B8 000:463.077 JLINK_WriteReg(R1, 0x00000400)
T25B8 000:463.482 - 0.608ms returns 0
T25B8 000:463.891 JLINK_WriteReg(R2, 0x000000FF)
T25B8 000:464.296 - 0.606ms returns 0
T25B8 000:464.715 JLINK_WriteReg(R3, 0x00000000)
T25B8 000:465.073 - 0.558ms returns 0
T25B8 000:465.480 JLINK_WriteReg(R4, 0x00000000)
T25B8 000:465.883 - 0.604ms returns 0
T25B8 000:466.292 JLINK_WriteReg(R5, 0x00000000)
T25B8 000:466.699 - 0.610ms returns 0
T25B8 000:467.119 JLINK_WriteReg(R6, 0x00000000)
T25B8 000:467.535 - 0.619ms returns 0
T25B8 000:467.944 JLINK_WriteReg(R7, 0x00000000)
T25B8 000:468.349 - 0.615ms returns 0
T25B8 000:468.765 JLINK_WriteReg(R8, 0x00000000)
T25B8 000:469.170 - 0.605ms returns 0
T25B8 000:469.576 JLINK_WriteReg(R9, 0x20000134)
T25B8 000:470.090 - 0.714ms returns 0
T25B8 000:470.499 JLINK_WriteReg(R10, 0x00000000)
T25B8 000:470.904 - 0.716ms returns 0
T25B8 000:471.415 JLINK_WriteReg(R11, 0x00000000)
T25B8 000:471.824 - 0.610ms returns 0
T25B8 000:472.232 JLINK_WriteReg(R12, 0x00000000)
T25B8 000:472.744 - 0.714ms returns 0
T25B8 000:473.162 JLINK_WriteReg(R13 (SP), 0x20001000)
T25B8 000:473.678 - 0.711ms returns 0
T25B8 000:474.079 JLINK_WriteReg(R14, 0x20000001)
T25B8 000:474.483 - 0.606ms returns 0
T25B8 000:474.884 JLINK_WriteReg(R15 (PC), 0x200000A8)
T25B8 000:475.632 - 1.167ms returns 0
T25B8 000:476.431 JLINK_WriteReg(XPSR, 0x01000000)
T25B8 000:476.994 - 0.750ms returns 0
T25B8 000:477.377 JLINK_WriteReg(MSP, 0x20001000)
T25B8 000:477.757 - 0.569ms returns 0
T25B8 000:478.138 JLINK_WriteReg(PSP, 0x20001000)
T25B8 000:478.904 - 1.138ms returns 0
T25B8 000:479.651 JLINK_WriteReg(CFBP, 0x00000000)
T25B8 000:480.404 - 1.137ms returns 0
T25B8 000:481.167 JLINK_SetBPEx(Addr = 0x20000000, Type = 0xFFFFFFF2)
T25B8 000:481.914 - 1.120ms returns 0x00000003
T25B8 000:482.665 JLINK_Go()
T25B8 000:483.416   CPU_ReadMem(4 bytes @ 0xE0001000)
T25B8 000:486.791 - 4.382ms
T25B8 000:487.283 JLINK_IsHalted()
T25B8 000:488.061 - 1.196ms returns FALSE
T25B8 000:488.679 JLINK_HasError()
T25B8 000:498.796 JLINK_IsHalted()
T25B8 000:499.697 - 1.160ms returns FALSE
T25B8 000:500.255 JLINK_HasError()
T25B8 000:501.918 JLINK_IsHalted()
T25B8 000:502.759 - 1.096ms returns FALSE
T25B8 000:503.305 JLINK_HasError()
T25B8 000:504.977 JLINK_IsHalted()
T25B8 000:505.719 - 0.988ms returns FALSE
T25B8 000:506.225 JLINK_HasError()
T25B8 000:507.938 JLINK_IsHalted()
T25B8 000:509.035 - 1.693ms returns FALSE
T25B8 000:509.864 JLINK_HasError()
T25B8 000:512.780 JLINK_IsHalted()
T25B8 000:513.542 - 1.012ms returns FALSE
T25B8 000:514.025 JLINK_HasError()
T25B8 000:516.163 JLINK_IsHalted()
T25B8 000:516.975 - 1.047ms returns FALSE
T25B8 000:517.374 JLINK_HasError()
T25B8 000:519.877 JLINK_IsHalted()
T25B8 000:520.624 - 0.939ms returns FALSE
T25B8 000:521.016 JLINK_HasError()
T25B8 000:523.846 JLINK_IsHalted()
T25B8 000:524.592 - 0.901ms returns FALSE
T25B8 000:524.975 JLINK_HasError()
T25B8 000:527.159 JLINK_IsHalted()
T25B8 000:527.927 - 0.962ms returns FALSE
T25B8 000:528.321 JLINK_HasError()
T25B8 000:530.738 JLINK_IsHalted()
T25B8 000:531.478 - 0.919ms returns FALSE
T25B8 000:531.891 JLINK_HasError()
T25B8 000:534.334 JLINK_IsHalted()
T25B8 000:535.078 - 0.896ms returns FALSE
T25B8 000:535.432 JLINK_HasError()
T25B8 000:538.347 JLINK_IsHalted()
T25B8 000:539.094 - 0.976ms returns FALSE
T25B8 000:539.590 JLINK_HasError()
T25B8 000:541.422 JLINK_IsHalted()
T25B8 000:542.172 - 0.900ms returns FALSE
T25B8 000:542.522 JLINK_HasError()
T25B8 000:544.971 JLINK_IsHalted()
T25B8 000:545.650 - 0.835ms returns FALSE
T25B8 000:546.046 JLINK_HasError()
T25B8 000:548.001 JLINK_IsHalted()
T25B8 000:548.742 - 0.953ms returns FALSE
T25B8 000:549.506 JLINK_HasError()
T25B8 000:551.732 JLINK_IsHalted()
T25B8 000:554.017   CPU_ReadMem(2 bytes @ 0x20000000)
T25B8 000:555.658 - 4.118ms returns TRUE
T25B8 000:556.067 JLINK_ReadReg(R15 (PC))
T25B8 000:556.541 - 0.639ms returns 0x20000000
T25B8 000:556.937 JLINK_ClrBPEx(BPHandle = 0x00000003)
T25B8 000:557.341 - 0.600ms returns 0x00
T25B8 000:557.748 JLINK_ReadReg(R0)
T25B8 000:558.152 - 0.603ms returns 0x00000000
T25B8 000:559.011 JLINK_HasError()
T25B8 000:559.957 JLINK_WriteReg(R0, 0x08000400)
T25B8 000:560.463 - 0.703ms returns 0
T25B8 000:560.868 JLINK_WriteReg(R1, 0x00000400)
T25B8 000:561.275 - 0.605ms returns 0
T25B8 000:561.683 JLINK_WriteReg(R2, 0x000000FF)
T25B8 000:562.097 - 0.613ms returns 0
T25B8 000:562.503 JLINK_WriteReg(R3, 0x00000000)
T25B8 000:562.912 - 0.607ms returns 0
T25B8 000:563.319 JLINK_WriteReg(R4, 0x00000000)
T25B8 000:563.725 - 0.605ms returns 0
T25B8 000:564.132 JLINK_WriteReg(R5, 0x00000000)
T25B8 000:564.536 - 0.610ms returns 0
T25B8 000:564.889 JLINK_WriteReg(R6, 0x00000000)
T25B8 000:565.291 - 0.603ms returns 0
T25B8 000:565.701 JLINK_WriteReg(R7, 0x00000000)
T25B8 000:566.149 - 0.650ms returns 0
T25B8 000:566.584 JLINK_WriteReg(R8, 0x00000000)
T25B8 000:567.008 - 0.621ms returns 0
T25B8 000:567.423 JLINK_WriteReg(R9, 0x20000134)
T25B8 000:567.834 - 0.610ms returns 0
T25B8 000:568.243 JLINK_WriteReg(R10, 0x00000000)
T25B8 000:568.661 - 0.611ms returns 0
T25B8 000:569.062 JLINK_WriteReg(R11, 0x00000000)
T25B8 000:569.469 - 0.610ms returns 0
T25B8 000:569.876 JLINK_WriteReg(R12, 0x00000000)
T25B8 000:570.284 - 0.609ms returns 0
T25B8 000:570.691 JLINK_WriteReg(R13 (SP), 0x20001000)
T25B8 000:571.096 - 0.608ms returns 0
T25B8 000:571.507 JLINK_WriteReg(R14, 0x20000001)
T25B8 000:572.128 - 0.821ms returns 0
T25B8 000:572.535 JLINK_WriteReg(R15 (PC), 0x20000020)
T25B8 000:572.942 - 0.726ms returns 0
T25B8 000:573.459 JLINK_WriteReg(XPSR, 0x01000000)
T25B8 000:573.848 - 1.150ms returns 0
T25B8 000:574.914 JLINK_WriteReg(MSP, 0x20001000)
T25B8 000:575.537 - 0.944ms returns 0
T25B8 000:576.136 JLINK_WriteReg(PSP, 0x20001000)
T25B8 000:576.538 - 0.602ms returns 0
T25B8 000:576.947 JLINK_WriteReg(CFBP, 0x00000000)
T25B8 000:577.354 - 0.611ms returns 0
T25B8 000:577.774 JLINK_SetBPEx(Addr = 0x20000000, Type = 0xFFFFFFF2)
T25B8 000:578.170 - 0.587ms returns 0x00000004
T25B8 000:578.555 JLINK_Go()
T25B8 000:578.941   CPU_ReadMem(4 bytes @ 0xE0001000)
T25B8 000:581.726 - 3.330ms
T25B8 000:582.086 JLINK_IsHalted()
T25B8 000:584.206   CPU_ReadMem(2 bytes @ 0x20000000)
T25B8 000:585.102 - 3.166ms returns TRUE
T25B8 000:585.452 JLINK_ReadReg(R15 (PC))
T25B8 000:585.891 - 0.667ms returns 0x20000000
T25B8 000:586.350 JLINK_ClrBPEx(BPHandle = 0x00000004)
T25B8 000:586.812 - 0.691ms returns 0x00
T25B8 000:587.277 JLINK_ReadReg(R0)
T25B8 000:587.713 - 0.633ms returns 0x00000001
T25B8 000:588.116 JLINK_HasError()
T25B8 000:588.526 JLINK_WriteReg(R0, 0x08000400)
T25B8 000:588.933 - 0.611ms returns 0
T25B8 000:589.345 JLINK_WriteReg(R1, 0x00000400)
T25B8 000:589.750 - 0.643ms returns 0
T25B8 000:590.188 JLINK_WriteReg(R2, 0x000000FF)
T25B8 000:590.670 - 0.787ms returns 0
T25B8 000:591.173 JLINK_WriteReg(R3, 0x00000000)
T25B8 000:591.579 - 0.607ms returns 0
T25B8 000:591.989 JLINK_WriteReg(R4, 0x00000000)
T25B8 000:592.498 - 0.749ms returns 0
T25B8 000:592.940 JLINK_WriteReg(R5, 0x00000000)
T25B8 000:593.516 - 0.906ms returns 0
T25B8 000:594.080 JLINK_WriteReg(R6, 0x00000000)
T25B8 000:594.574 - 0.695ms returns 0
T25B8 000:594.981 JLINK_WriteReg(R7, 0x00000000)
T25B8 000:595.514 - 0.729ms returns 0
T25B8 000:596.013 JLINK_WriteReg(R8, 0x00000000)
T25B8 000:596.509 - 0.733ms returns 0
T25B8 000:596.980 JLINK_WriteReg(R9, 0x20000134)
T25B8 000:597.379 - 0.712ms returns 0
T25B8 000:597.891 JLINK_WriteReg(R10, 0x00000000)
T25B8 000:598.305 - 0.613ms returns 0
T25B8 000:598.708 JLINK_WriteReg(R11, 0x00000000)
T25B8 000:599.229 - 0.715ms returns 0
T25B8 000:599.630 JLINK_WriteReg(R12, 0x00000000)
T25B8 000:600.034 - 0.607ms returns 0
T25B8 000:600.562 JLINK_WriteReg(R13 (SP), 0x20001000)
T25B8 000:600.961 - 0.587ms returns 0
T25B8 000:601.343 JLINK_WriteReg(R14, 0x20000001)
T25B8 000:601.730 - 0.577ms returns 0
T25B8 000:602.114 JLINK_WriteReg(R15 (PC), 0x200000A8)
T25B8 000:602.864 - 1.124ms returns 0
T25B8 000:603.431 JLINK_WriteReg(XPSR, 0x01000000)
T25B8 000:603.813 - 0.573ms returns 0
T25B8 000:604.382 JLINK_WriteReg(MSP, 0x20001000)
T25B8 000:604.760 - 0.566ms returns 0
T25B8 000:605.141 JLINK_WriteReg(PSP, 0x20001000)
T25B8 000:605.902 - 1.140ms returns 0
T25B8 000:606.663 JLINK_WriteReg(CFBP, 0x00000000)
T25B8 000:607.408 - 1.116ms returns 0
T25B8 000:608.158 JLINK_SetBPEx(Addr = 0x20000000, Type = 0xFFFFFFF2)
T25B8 000:608.914 - 1.129ms returns 0x00000005
T25B8 000:609.665 JLINK_Go()
T25B8 000:610.266   CPU_ReadMem(4 bytes @ 0xE0001000)
T25B8 000:613.097 - 3.589ms
T25B8 000:613.455 JLINK_IsHalted()
T25B8 000:614.286 - 1.414ms returns FALSE
T25B8 000:615.309 JLINK_HasError()
T25B8 000:620.201 JLINK_IsHalted()
T25B8 000:621.054 - 1.109ms returns FALSE
T25B8 000:621.543 JLINK_HasError()
T25B8 000:623.228 JLINK_IsHalted()
T25B8 000:623.976 - 1.032ms returns FALSE
T25B8 000:624.550 JLINK_HasError()
T25B8 000:627.217 JLINK_IsHalted()
T25B8 000:628.047 - 1.051ms returns FALSE
T25B8 000:628.507 JLINK_HasError()
T25B8 000:630.211 JLINK_IsHalted()
T25B8 000:630.977 - 0.985ms returns FALSE
T25B8 000:631.431 JLINK_HasError()
T25B8 000:634.399 JLINK_IsHalted()
T25B8 000:635.133 - 0.920ms returns FALSE
T25B8 000:635.552 JLINK_HasError()
T25B8 000:637.352 JLINK_IsHalted()
T25B8 000:638.176 - 0.974ms returns FALSE
T25B8 000:638.525 JLINK_HasError()
T25B8 000:641.046 JLINK_IsHalted()
T25B8 000:641.803 - 1.031ms returns FALSE
T25B8 000:642.299 JLINK_HasError()
T25B8 000:644.710 JLINK_IsHalted()
T25B8 000:645.393 - 0.868ms returns FALSE
T25B8 000:645.793 JLINK_HasError()
T25B8 000:647.725 JLINK_IsHalted()
T25B8 000:648.446 - 0.904ms returns FALSE
T25B8 000:648.904 JLINK_HasError()
T25B8 000:651.488 JLINK_IsHalted()
T25B8 000:652.279 - 1.007ms returns FALSE
T25B8 000:652.700 JLINK_HasError()
T25B8 000:655.220 JLINK_IsHalted()
T25B8 000:655.891 - 0.854ms returns FALSE
T25B8 000:656.306 JLINK_HasError()
T25B8 000:658.711 JLINK_IsHalted()
T25B8 000:659.504 - 1.079ms returns FALSE
T25B8 000:660.020 JLINK_HasError()
T25B8 000:662.494 JLINK_IsHalted()
T25B8 000:663.199 - 0.898ms returns FALSE
T25B8 000:663.627 JLINK_HasError()
T25B8 000:666.112 JLINK_IsHalted()
T25B8 000:666.849 - 0.969ms returns FALSE
T25B8 000:667.311 JLINK_HasError()
T25B8 000:669.091 JLINK_IsHalted()
T25B8 000:669.887 - 0.985ms returns FALSE
T25B8 000:670.311 JLINK_HasError()
T25B8 000:672.813 JLINK_IsHalted()
T25B8 000:673.618 - 1.089ms returns FALSE
T25B8 000:674.104 JLINK_HasError()
T25B8 000:676.099 JLINK_IsHalted()
T25B8 000:676.856 - 0.974ms returns FALSE
T25B8 000:677.305 JLINK_HasError()
T25B8 000:679.088 JLINK_IsHalted()
T25B8 000:681.325   CPU_ReadMem(2 bytes @ 0x20000000)
T25B8 000:682.252 - 3.415ms returns TRUE
T25B8 000:682.701 JLINK_ReadReg(R15 (PC))
T25B8 000:683.143 - 0.670ms returns 0x20000000
T25B8 000:683.573 JLINK_ClrBPEx(BPHandle = 0x00000005)
T25B8 000:684.024 - 0.680ms returns 0x00
T25B8 000:684.452 JLINK_ReadReg(R0)
T25B8 000:684.893 - 0.678ms returns 0x00000000
T25B8 000:685.671 JLINK_HasError()
T25B8 000:686.084 JLINK_WriteReg(R0, 0x08000800)
T25B8 000:686.489 - 0.652ms returns 0
T25B8 000:686.934 JLINK_WriteReg(R1, 0x00000400)
T25B8 000:687.338 - 0.604ms returns 0
T25B8 000:687.743 JLINK_WriteReg(R2, 0x000000FF)
T25B8 000:688.150 - 0.607ms returns 0
T25B8 000:688.557 JLINK_WriteReg(R3, 0x00000000)
T25B8 000:688.962 - 0.607ms returns 0
T25B8 000:689.370 JLINK_WriteReg(R4, 0x00000000)
T25B8 000:689.779 - 0.611ms returns 0
T25B8 000:690.190 JLINK_WriteReg(R5, 0x00000000)
T25B8 000:690.593 - 0.606ms returns 0
T25B8 000:690.999 JLINK_WriteReg(R6, 0x00000000)
T25B8 000:691.405 - 0.607ms returns 0
T25B8 000:691.810 JLINK_WriteReg(R7, 0x00000000)
T25B8 000:692.239 - 0.629ms returns 0
T25B8 000:692.645 JLINK_WriteReg(R8, 0x00000000)
T25B8 000:693.160 - 0.709ms returns 0
T25B8 000:693.561 JLINK_WriteReg(R9, 0x20000134)
T25B8 000:693.966 - 0.612ms returns 0
T25B8 000:694.375 JLINK_WriteReg(R10, 0x00000000)
T25B8 000:694.783 - 0.608ms returns 0
T25B8 000:695.194 JLINK_WriteReg(R11, 0x00000000)
T25B8 000:695.805 - 0.797ms returns 0
T25B8 000:696.272 JLINK_WriteReg(R12, 0x00000000)
T25B8 000:696.672 - 0.602ms returns 0
T25B8 000:697.081 JLINK_WriteReg(R13 (SP), 0x20001000)
T25B8 000:697.595 - 0.714ms returns 0
T25B8 000:698.002 JLINK_WriteReg(R14, 0x20000001)
T25B8 000:698.406 - 0.724ms returns 0
T25B8 000:698.926 JLINK_WriteReg(R15 (PC), 0x20000020)
T25B8 000:699.331 - 0.605ms returns 0
T25B8 000:699.737 JLINK_WriteReg(XPSR, 0x01000000)
T25B8 000:700.256 - 0.722ms returns 0
T25B8 000:700.665 JLINK_WriteReg(MSP, 0x20001000)
T25B8 000:701.071 - 0.607ms returns 0
T25B8 000:701.590 JLINK_WriteReg(PSP, 0x20001000)
T25B8 000:702.070 - 0.677ms returns 0
T25B8 000:702.474 JLINK_WriteReg(CFBP, 0x00000000)
T25B8 000:702.885 - 0.610ms returns 0
T25B8 000:703.405 JLINK_SetBPEx(Addr = 0x20000000, Type = 0xFFFFFFF2)
T25B8 000:703.806 - 0.601ms returns 0x00000006
T25B8 000:704.213 JLINK_Go()
T25B8 000:704.838   CPU_ReadMem(4 bytes @ 0xE0001000)
T25B8 000:708.166 - 4.179ms
T25B8 000:708.626 JLINK_IsHalted()
T25B8 000:710.664   CPU_ReadMem(2 bytes @ 0x20000000)
T25B8 000:711.613 - 3.228ms returns TRUE
T25B8 000:712.089 JLINK_ReadReg(R15 (PC))
T25B8 000:712.550 - 0.690ms returns 0x20000000
T25B8 000:713.015 JLINK_ClrBPEx(BPHandle = 0x00000006)
T25B8 000:713.445 - 0.662ms returns 0x00
T25B8 000:713.876 JLINK_ReadReg(R0)
T25B8 000:714.318 - 0.638ms returns 0x00000001
T25B8 000:714.756 JLINK_HasError()
T25B8 000:715.182 JLINK_WriteReg(R0, 0x08000800)
T25B8 000:715.616 - 0.660ms returns 0
T25B8 000:716.044 JLINK_WriteReg(R1, 0x00000400)
T25B8 000:716.452 - 0.605ms returns 0
T25B8 000:716.857 JLINK_WriteReg(R2, 0x000000FF)
T25B8 000:717.273 - 0.620ms returns 0
T25B8 000:717.684 JLINK_WriteReg(R3, 0x00000000)
T25B8 000:718.098 - 0.616ms returns 0
T25B8 000:718.513 JLINK_WriteReg(R4, 0x00000000)
T25B8 000:718.917 - 0.613ms returns 0
T25B8 000:719.333 JLINK_WriteReg(R5, 0x00000000)
T25B8 000:719.736 - 0.604ms returns 0
T25B8 000:720.146 JLINK_WriteReg(R6, 0x00000000)
T25B8 000:720.550 - 0.605ms returns 0
T25B8 000:720.956 JLINK_WriteReg(R7, 0x00000000)
T25B8 000:721.361 - 0.606ms returns 0
T25B8 000:721.770 JLINK_WriteReg(R8, 0x00000000)
T25B8 000:722.175 - 0.607ms returns 0
T25B8 000:722.583 JLINK_WriteReg(R9, 0x20000134)
T25B8 000:723.094 - 0.713ms returns 0
T25B8 000:723.502 JLINK_WriteReg(R10, 0x00000000)
T25B8 000:723.909 - 0.609ms returns 0
T25B8 000:724.442 JLINK_WriteReg(R11, 0x00000000)
T25B8 000:724.871 - 0.783ms returns 0
T25B8 000:725.423 JLINK_WriteReg(R12, 0x00000000)
T25B8 000:725.833 - 0.933ms returns 0
T25B8 000:726.586 JLINK_WriteReg(R13 (SP), 0x20001000)
T25B8 000:726.987 - 0.602ms returns 0
T25B8 000:727.396 JLINK_WriteReg(R14, 0x20000001)
T25B8 000:727.789 - 0.583ms returns 0
T25B8 000:728.172 JLINK_WriteReg(R15 (PC), 0x200000A8)
T25B8 000:728.734 - 0.751ms returns 0
T25B8 000:729.116 JLINK_WriteReg(XPSR, 0x01000000)
T25B8 000:729.688 - 0.945ms returns 0
T25B8 000:730.254 JLINK_WriteReg(MSP, 0x20001000)
T25B8 000:730.642 - 0.760ms returns 0
T25B8 000:731.206 JLINK_WriteReg(PSP, 0x20001000)
T25B8 000:731.966 - 1.133ms returns 0
T25B8 000:732.725 JLINK_WriteReg(CFBP, 0x00000000)
T25B8 000:733.481 - 1.129ms returns 0
T25B8 000:734.048 JLINK_SetBPEx(Addr = 0x20000000, Type = 0xFFFFFFF2)
T25B8 000:737.647 - 3.852ms returns 0x00000007
T25B8 000:738.135 JLINK_Go()
T25B8 000:738.608   CPU_ReadMem(4 bytes @ 0xE0001000)
T25B8 000:741.426 - 3.563ms
T25B8 000:741.988 JLINK_IsHalted()
T25B8 000:742.813 - 1.040ms returns FALSE
T25B8 000:743.258 JLINK_HasError()
T25B8 000:746.206 JLINK_IsHalted()
T25B8 000:747.051 - 1.134ms returns FALSE
T25B8 000:747.572 JLINK_HasError()
T25B8 000:749.199 JLINK_IsHalted()
T25B8 000:750.000 - 1.027ms returns FALSE
T25B8 000:750.450 JLINK_HasError()
T25B8 000:752.186 JLINK_IsHalted()
T25B8 000:752.938 - 1.031ms returns FALSE
T25B8 000:753.450 JLINK_HasError()
T25B8 000:755.177 JLINK_IsHalted()
T25B8 000:755.987 - 1.112ms returns FALSE
T25B8 000:756.541 JLINK_HasError()
T25B8 000:758.247 JLINK_IsHalted()
T25B8 000:759.995 - 2.066ms returns FALSE
T25B8 000:760.573 JLINK_HasError()
T25B8 000:763.174 JLINK_IsHalted()
T25B8 000:764.031 - 1.157ms returns FALSE
T25B8 000:764.589 JLINK_HasError()
T25B8 000:766.256 JLINK_IsHalted()
T25B8 000:767.170 - 1.213ms returns FALSE
T25B8 000:767.696 JLINK_HasError()
T25B8 000:770.153 JLINK_IsHalted()
T25B8 000:770.985 - 1.100ms returns FALSE
T25B8 000:771.621 JLINK_HasError()
T25B8 000:773.421 JLINK_IsHalted()
T25B8 000:776.047 - 2.870ms returns FALSE
T25B8 000:776.532 JLINK_HasError()
T25B8 000:778.051 JLINK_IsHalted()
T25B8 000:778.835 - 1.001ms returns FALSE
T25B8 000:779.285 JLINK_HasError()
T25B8 000:781.731 JLINK_IsHalted()
T25B8 000:782.460 - 0.979ms returns FALSE
T25B8 000:782.937 JLINK_HasError()
T25B8 000:785.447 JLINK_IsHalted()
T25B8 000:786.363 - 1.265ms returns FALSE
T25B8 000:786.982 JLINK_HasError()
T25B8 000:790.596 JLINK_IsHalted()
T25B8 000:791.734 - 1.467ms returns FALSE
T25B8 000:792.365 JLINK_HasError()
T25B8 000:794.974 JLINK_IsHalted()
T25B8 000:795.882 - 1.218ms returns FALSE
T25B8 000:796.512 JLINK_HasError()
T25B8 000:799.205 JLINK_IsHalted()
T25B8 000:800.043 - 1.094ms returns FALSE
T25B8 000:800.550 JLINK_HasError()
T25B8 000:803.057 JLINK_IsHalted()
T25B8 000:803.899 - 1.063ms returns FALSE
T25B8 000:804.401 JLINK_HasError()
T25B8 000:806.969 JLINK_IsHalted()
T25B8 000:809.257   CPU_ReadMem(2 bytes @ 0x20000000)
T25B8 000:810.270 - 3.588ms returns TRUE
T25B8 000:810.791 JLINK_ReadReg(R15 (PC))
T25B8 000:811.219 - 0.654ms returns 0x20000000
T25B8 000:811.676 JLINK_ClrBPEx(BPHandle = 0x00000007)
T25B8 000:812.134 - 0.685ms returns 0x00
T25B8 000:812.594 JLINK_ReadReg(R0)
T25B8 000:813.053 - 0.687ms returns 0x00000000
T25B8 000:813.830 JLINK_HasError()
T25B8 000:814.262 JLINK_WriteReg(R0, 0x08000C00)
T25B8 000:814.718 - 0.692ms returns 0
T25B8 000:815.186 JLINK_WriteReg(R1, 0x00000400)
T25B8 000:815.644 - 0.684ms returns 0
T25B8 000:816.099 JLINK_WriteReg(R2, 0x000000FF)
T25B8 000:816.549 - 0.679ms returns 0
T25B8 000:817.002 JLINK_WriteReg(R3, 0x00000000)
T25B8 000:817.435 - 0.655ms returns 0
T25B8 000:817.854 JLINK_WriteReg(R4, 0x00000000)
T25B8 000:818.258 - 0.606ms returns 0
T25B8 000:818.665 JLINK_WriteReg(R5, 0x00000000)
T25B8 000:819.198 - 0.726ms returns 0
T25B8 000:819.596 JLINK_WriteReg(R6, 0x00000000)
T25B8 000:820.001 - 0.615ms returns 0
T25B8 000:820.417 JLINK_WriteReg(R7, 0x00000000)
T25B8 000:820.933 - 0.717ms returns 0
T25B8 000:821.339 JLINK_WriteReg(R8, 0x00000000)
T25B8 000:821.744 - 0.730ms returns 0
T25B8 000:822.269 JLINK_WriteReg(R9, 0x20000134)
T25B8 000:822.672 - 0.604ms returns 0
T25B8 000:823.214 JLINK_WriteReg(R10, 0x00000000)
T25B8 000:823.609 - 0.604ms returns 0
T25B8 000:824.025 JLINK_WriteReg(R11, 0x00000000)
T25B8 000:824.545 - 0.721ms returns 0
T25B8 000:824.971 JLINK_WriteReg(R12, 0x00000000)
T25B8 000:825.491 - 0.714ms returns 0
T25B8 000:825.892 JLINK_WriteReg(R13 (SP), 0x20001000)
T25B8 000:826.296 - 0.604ms returns 0
T25B8 000:826.702 JLINK_WriteReg(R14, 0x20000001)
T25B8 000:827.216 - 0.716ms returns 0
T25B8 000:827.632 JLINK_WriteReg(R15 (PC), 0x20000020)
T25B8 000:828.036 - 0.716ms returns 0
T25B8 000:828.546 JLINK_WriteReg(XPSR, 0x01000000)
T25B8 000:828.951 - 0.613ms returns 0
T25B8 000:829.381 JLINK_WriteReg(MSP, 0x20001000)
T25B8 000:829.941 - 0.989ms returns 0
T25B8 000:830.658 JLINK_WriteReg(PSP, 0x20001000)
T25B8 000:831.060 - 0.606ms returns 0
T25B8 000:831.470 JLINK_WriteReg(CFBP, 0x00000000)
T25B8 000:831.873 - 0.999ms returns 0
T25B8 000:832.907 JLINK_SetBPEx(Addr = 0x20000000, Type = 0xFFFFFFF2)
T25B8 000:857.017 - 24.543ms returns 0x00000008
T25B8 000:857.922 JLINK_Go()
T25B8 000:858.959   CPU_ReadMem(4 bytes @ 0xE0001000)
T25B8 000:862.822 - 5.223ms
T25B8 000:863.586 JLINK_IsHalted()
T25B8 000:865.993   CPU_ReadMem(2 bytes @ 0x20000000)
T25B8 000:867.611 - 4.380ms returns TRUE
T25B8 000:868.208 JLINK_ReadReg(R15 (PC))
T25B8 000:868.719 - 0.755ms returns 0x20000000
T25B8 000:869.206 JLINK_ClrBPEx(BPHandle = 0x00000008)
T25B8 000:869.687 - 0.728ms returns 0x00
T25B8 000:870.168 JLINK_ReadReg(R0)
T25B8 000:870.654 - 0.690ms returns 0x00000001
T25B8 000:871.088 JLINK_HasError()
T25B8 000:871.548 JLINK_WriteReg(R0, 0x08000C00)
T25B8 000:872.008 - 0.690ms returns 0
T25B8 000:872.470 JLINK_WriteReg(R1, 0x00000400)
T25B8 000:872.939 - 0.701ms returns 0
T25B8 000:873.407 JLINK_WriteReg(R2, 0x000000FF)
T25B8 000:873.868 - 0.718ms returns 0
T25B8 000:874.388 JLINK_WriteReg(R3, 0x00000000)
T25B8 000:875.092 - 1.089ms returns 0
T25B8 000:875.827 JLINK_WriteReg(R4, 0x00000000)
T25B8 000:876.388 - 0.948ms returns 0
T25B8 000:876.983 JLINK_WriteReg(R5, 0x00000000)
T25B8 000:877.549 - 0.786ms returns 0
T25B8 000:877.969 JLINK_WriteReg(R6, 0x00000000)
T25B8 000:878.407 - 0.808ms returns 0
T25B8 000:878.976 JLINK_WriteReg(R7, 0x00000000)
T25B8 000:879.414 - 0.841ms returns 0
T25B8 000:880.193 JLINK_WriteReg(R8, 0x00000000)
T25B8 000:880.963 - 1.168ms returns 0
T25B8 000:881.736 JLINK_WriteReg(R9, 0x20000134)
T25B8 000:882.321 - 0.957ms returns 0
T25B8 000:882.895 JLINK_WriteReg(R10, 0x00000000)
T25B8 000:883.453 - 0.933ms returns 0
T25B8 000:884.203 JLINK_WriteReg(R11, 0x00000000)
T25B8 000:884.946 - 1.113ms returns 0
T25B8 000:885.689 JLINK_WriteReg(R12, 0x00000000)
T25B8 000:886.730 - 1.503ms returns 0
T25B8 000:887.604 JLINK_WriteReg(R13 (SP), 0x20001000)
T25B8 000:888.414 - 0.998ms returns 0
T25B8 000:888.828 JLINK_WriteReg(R14, 0x20000001)
T25B8 000:889.606 - 1.146ms returns 0
T25B8 000:890.203 JLINK_WriteReg(R15 (PC), 0x200000A8)
T25B8 000:890.976 - 1.190ms returns 0
T25B8 000:891.768 JLINK_WriteReg(XPSR, 0x01000000)
T25B8 000:892.395 - 0.846ms returns 0
T25B8 000:893.029 JLINK_WriteReg(MSP, 0x20001000)
T25B8 000:893.836 - 1.211ms returns 0
T25B8 000:894.469 JLINK_WriteReg(PSP, 0x20001000)
T25B8 000:894.911 - 0.664ms returns 0
T25B8 000:895.359 JLINK_WriteReg(CFBP, 0x00000000)
T25B8 000:896.168 - 1.211ms returns 0
T25B8 000:896.988 JLINK_SetBPEx(Addr = 0x20000000, Type = 0xFFFFFFF2)
T25B8 000:897.433 - 0.850ms returns 0x00000009
T25B8 000:898.246 JLINK_Go()
T25B8 000:899.064   CPU_ReadMem(4 bytes @ 0xE0001000)
T25B8 000:902.152 - 4.083ms
T25B8 000:902.562 JLINK_IsHalted()
T25B8 000:903.283 - 0.946ms returns FALSE
T25B8 000:903.749 JLINK_HasError()
T25B8 000:908.790 JLINK_IsHalted()
T25B8 000:909.626 - 1.092ms returns FALSE
T25B8 000:910.117 JLINK_HasError()
T25B8 000:912.662 JLINK_IsHalted()
T25B8 000:913.512 - 1.094ms returns FALSE
T25B8 000:913.994 JLINK_HasError()
T25B8 000:915.784 JLINK_IsHalted()
T25B8 000:916.614 - 1.084ms returns FALSE
T25B8 000:917.093 JLINK_HasError()
T25B8 000:919.545 JLINK_IsHalted()
T25B8 000:920.226 - 0.862ms returns FALSE
T25B8 000:920.640 JLINK_HasError()
T25B8 000:924.062 JLINK_IsHalted()
T25B8 000:924.931 - 1.097ms returns FALSE
T25B8 000:925.424 JLINK_HasError()
T25B8 000:927.816 JLINK_IsHalted()
T25B8 000:928.578 - 1.046ms returns FALSE
T25B8 000:929.139 JLINK_HasError()
T25B8 000:931.693 JLINK_IsHalted()
T25B8 000:932.543 - 1.151ms returns FALSE
T25B8 000:933.117 JLINK_HasError()
T25B8 000:935.724 JLINK_IsHalted()
T25B8 000:936.541 - 1.101ms returns FALSE
T25B8 000:937.107 JLINK_HasError()
T25B8 000:939.667 JLINK_IsHalted()
T25B8 000:940.558 - 1.156ms returns FALSE
T25B8 000:941.081 JLINK_HasError()
T25B8 000:943.675 JLINK_IsHalted()
T25B8 000:944.364 - 0.902ms returns FALSE
T25B8 000:944.809 JLINK_HasError()
T25B8 000:946.715 JLINK_IsHalted()
T25B8 000:947.610 - 1.204ms returns FALSE
T25B8 000:948.149 JLINK_HasError()
T25B8 000:950.587 JLINK_IsHalted()
T25B8 000:951.529 - 1.228ms returns FALSE
T25B8 000:952.075 JLINK_HasError()
T25B8 000:954.581 JLINK_IsHalted()
T25B8 000:955.247 - 0.855ms returns FALSE
T25B8 000:955.647 JLINK_HasError()
T25B8 000:957.604 JLINK_IsHalted()
T25B8 000:958.427 - 1.094ms returns FALSE
T25B8 000:958.931 JLINK_HasError()
T25B8 000:961.484 JLINK_IsHalted()
T25B8 000:962.283 - 1.107ms returns FALSE
T25B8 000:962.856 JLINK_HasError()
T25B8 000:965.436 JLINK_IsHalted()
T25B8 000:966.390 - 1.299ms returns FALSE
T25B8 000:967.025 JLINK_HasError()
T25B8 000:968.658 JLINK_IsHalted()
T25B8 000:971.034   CPU_ReadMem(2 bytes @ 0x20000000)
T25B8 000:972.207 - 3.845ms returns TRUE
T25B8 000:972.787 JLINK_ReadReg(R15 (PC))
T25B8 000:973.301 - 0.766ms returns 0x20000000
T25B8 000:973.788 JLINK_ClrBPEx(BPHandle = 0x00000009)
T25B8 000:974.301 - 0.913ms returns 0x00
T25B8 000:974.931 JLINK_ReadReg(R0)
T25B8 000:975.411 - 0.707ms returns 0x00000000
T25B8 000:976.178 JLINK_HasError()
T25B8 000:976.678 JLINK_WriteReg(R0, 0x08001000)
T25B8 000:977.104 - 0.647ms returns 0
T25B8 000:977.583 JLINK_WriteReg(R1, 0x00000400)
T25B8 000:977.982 - 0.602ms returns 0
T25B8 000:978.420 JLINK_WriteReg(R2, 0x000000FF)
T25B8 000:978.851 - 0.632ms returns 0
T25B8 000:979.290 JLINK_WriteReg(R3, 0x00000000)
T25B8 000:979.717 - 0.627ms returns 0
T25B8 000:980.154 JLINK_WriteReg(R4, 0x00000000)
T25B8 000:980.582 - 0.628ms returns 0
T25B8 000:981.021 JLINK_WriteReg(R5, 0x00000000)
T25B8 000:981.422 - 0.608ms returns 0
T25B8 000:981.836 JLINK_WriteReg(R6, 0x00000000)
T25B8 000:982.240 - 0.616ms returns 0
T25B8 000:982.655 JLINK_WriteReg(R7, 0x00000000)
T25B8 000:983.059 - 0.605ms returns 0
T25B8 000:983.474 JLINK_WriteReg(R8, 0x00000000)
T25B8 000:983.879 - 0.606ms returns 0
T25B8 000:984.285 JLINK_WriteReg(R9, 0x20000134)
T25B8 000:984.690 - 0.728ms returns 0
T25B8 000:985.213 JLINK_WriteReg(R10, 0x00000000)
T25B8 000:985.638 - 0.764ms returns 0
T25B8 000:986.205 JLINK_WriteReg(R11, 0x00000000)
T25B8 000:986.606 - 0.762ms returns 0
T25B8 000:987.166 JLINK_WriteReg(R12, 0x00000000)
T25B8 000:987.569 - 0.751ms returns 0
T25B8 000:988.122 JLINK_WriteReg(R13 (SP), 0x20001000)
T25B8 000:988.516 - 0.736ms returns 0
T25B8 000:989.055 JLINK_WriteReg(R14, 0x20000001)
T25B8 000:989.460 - 0.607ms returns 0
T25B8 000:990.000 JLINK_WriteReg(R15 (PC), 0x20000020)
T25B8 000:990.371 - 0.581ms returns 0
T25B8 000:990.787 JLINK_WriteReg(XPSR, 0x01000000)
T25B8 000:991.303 - 0.710ms returns 0
T25B8 000:991.703 JLINK_WriteReg(MSP, 0x20001000)
T25B8 000:992.107 - 0.613ms returns 0
T25B8 000:992.634 JLINK_WriteReg(PSP, 0x20001000)
T25B8 000:993.039 - 0.605ms returns 0
T25B8 000:993.445 JLINK_WriteReg(CFBP, 0x00000000)
T25B8 000:993.966 - 0.722ms returns 0
T25B8 000:994.374 JLINK_SetBPEx(Addr = 0x20000000, Type = 0xFFFFFFF2)
T25B8 000:994.779 - 0.725ms returns 0x0000000A
T25B8 000:995.299 JLINK_Go()
T25B8 000:995.709   CPU_ReadMem(4 bytes @ 0xE0001000)
T25B8 000:998.550 - 3.460ms
T25B8 000:998.957 JLINK_IsHalted()
T25B8 001:001.118   CPU_ReadMem(2 bytes @ 0x20000000)
T25B8 001:002.059 - 3.357ms returns TRUE
T25B8 001:002.546 JLINK_ReadReg(R15 (PC))
T25B8 001:003.007 - 0.685ms returns 0x20000000
T25B8 001:003.465 JLINK_ClrBPEx(BPHandle = 0x0000000A)
T25B8 001:003.928 - 0.696ms returns 0x00
T25B8 001:004.395 JLINK_ReadReg(R0)
T25B8 001:004.857 - 0.691ms returns 0x00000001
T25B8 001:005.290 JLINK_HasError()
T25B8 001:005.725 JLINK_WriteReg(R0, 0x08001000)
T25B8 001:006.149 - 0.627ms returns 0
T25B8 001:006.588 JLINK_WriteReg(R1, 0x00000400)
T25B8 001:007.005 - 0.619ms returns 0
T25B8 001:007.413 JLINK_WriteReg(R2, 0x000000FF)
T25B8 001:007.824 - 0.613ms returns 0
T25B8 001:008.232 JLINK_WriteReg(R3, 0x00000000)
T25B8 001:008.637 - 0.604ms returns 0
T25B8 001:009.043 JLINK_WriteReg(R4, 0x00000000)
T25B8 001:009.447 - 0.605ms returns 0
T25B8 001:009.854 JLINK_WriteReg(R5, 0x00000000)
T25B8 001:010.257 - 0.604ms returns 0
T25B8 001:010.665 JLINK_WriteReg(R6, 0x00000000)
T25B8 001:011.069 - 0.605ms returns 0
T25B8 001:011.476 JLINK_WriteReg(R7, 0x00000000)
T25B8 001:011.879 - 0.605ms returns 0
T25B8 001:012.287 JLINK_WriteReg(R8, 0x00000000)
T25B8 001:012.691 - 0.716ms returns 0
T25B8 001:013.202 JLINK_WriteReg(R9, 0x20000134)
T25B8 001:013.607 - 0.606ms returns 0
T25B8 001:014.013 JLINK_WriteReg(R10, 0x00000000)
T25B8 001:014.527 - 0.708ms returns 0
T25B8 001:014.926 JLINK_WriteReg(R11, 0x00000000)
T25B8 001:015.331 - 0.605ms returns 0
T25B8 001:015.738 JLINK_WriteReg(R12, 0x00000000)
T25B8 001:016.245 - 0.709ms returns 0
T25B8 001:016.653 JLINK_WriteReg(R13 (SP), 0x20001000)
T25B8 001:017.220 - 0.749ms returns 0
T25B8 001:017.609 JLINK_WriteReg(R14, 0x20000001)
T25B8 001:018.146 - 0.776ms returns 0
T25B8 001:018.573 JLINK_WriteReg(R15 (PC), 0x200000A8)
T25B8 001:019.144 - 0.939ms returns 0
T25B8 001:020.007 JLINK_WriteReg(XPSR, 0x01000000)
T25B8 001:021.062 - 1.351ms returns 0
T25B8 001:021.557 JLINK_WriteReg(MSP, 0x20001000)
T25B8 001:022.109 - 0.753ms returns 0
T25B8 001:022.504 JLINK_WriteReg(PSP, 0x20001000)
T25B8 001:022.907 - 0.603ms returns 0
T25B8 001:023.422 JLINK_WriteReg(CFBP, 0x00000000)
T25B8 001:023.847 - 0.672ms returns 0
T25B8 001:024.319 JLINK_SetBPEx(Addr = 0x20000000, Type = 0xFFFFFFF2)
T25B8 001:025.168 - 1.284ms returns 0x0000000B
T25B8 001:026.032 JLINK_Go()
T25B8 001:026.434   CPU_ReadMem(4 bytes @ 0xE0001000)
T25B8 001:029.162 - 3.341ms
T25B8 001:029.573 JLINK_IsHalted()
T25B8 001:030.248 - 0.895ms returns FALSE
T25B8 001:030.667 JLINK_HasError()
T25B8 001:033.094 JLINK_IsHalted()
T25B8 001:033.918 - 1.033ms returns FALSE
T25B8 001:034.361 JLINK_HasError()
T25B8 001:036.846 JLINK_IsHalted()
T25B8 001:037.657 - 1.036ms returns FALSE
T25B8 001:038.113 JLINK_HasError()
T25B8 001:039.857 JLINK_IsHalted()
T25B8 001:040.610 - 1.020ms returns FALSE
T25B8 001:041.137 JLINK_HasError()
T25B8 001:043.614 JLINK_IsHalted()
T25B8 001:044.331 - 0.940ms returns FALSE
T25B8 001:044.784 JLINK_HasError()
T25B8 001:047.297 JLINK_IsHalted()
T25B8 001:048.126 - 1.086ms returns FALSE
T25B8 001:048.633 JLINK_HasError()
T25B8 001:050.941 JLINK_IsHalted()
T25B8 001:051.766 - 1.111ms returns FALSE
T25B8 001:052.325 JLINK_HasError()
T25B8 001:054.755 JLINK_IsHalted()
T25B8 001:055.662 - 1.132ms returns FALSE
T25B8 001:056.151 JLINK_HasError()
T25B8 001:065.155 JLINK_IsHalted()
T25B8 001:066.001 - 1.046ms returns FALSE
T25B8 001:066.400 JLINK_HasError()
T25B8 001:069.807 JLINK_IsHalted()
T25B8 001:070.574 - 0.943ms returns FALSE
T25B8 001:070.946 JLINK_HasError()
T25B8 001:072.800 JLINK_IsHalted()
T25B8 001:073.527 - 0.901ms returns FALSE
T25B8 001:073.925 JLINK_HasError()
T25B8 001:076.330 JLINK_IsHalted()
T25B8 001:077.091 - 0.944ms returns FALSE
T25B8 001:077.472 JLINK_HasError()
T25B8 001:079.897 JLINK_IsHalted()
T25B8 001:080.736 - 1.084ms returns FALSE
T25B8 001:081.246 JLINK_HasError()
T25B8 001:083.863 JLINK_IsHalted()
T25B8 001:084.613 - 0.998ms returns FALSE
T25B8 001:085.791 JLINK_HasError()
T25B8 001:088.555 JLINK_IsHalted()
T25B8 001:089.441 - 1.163ms returns FALSE
T25B8 001:089.990 JLINK_HasError()
T25B8 001:091.892 JLINK_IsHalted()
T25B8 001:092.771 - 1.162ms returns FALSE
T25B8 001:093.313 JLINK_HasError()
T25B8 001:095.824 JLINK_IsHalted()
T25B8 001:098.095   CPU_ReadMem(2 bytes @ 0x20000000)
T25B8 001:099.157 - 3.681ms returns TRUE
T25B8 001:099.764 JLINK_ReadReg(R15 (PC))
T25B8 001:100.350 - 0.905ms returns 0x20000000
T25B8 001:100.922 JLINK_ClrBPEx(BPHandle = 0x0000000B)
T25B8 001:101.405 - 0.736ms returns 0x00
T25B8 001:101.860 JLINK_ReadReg(R0)
T25B8 001:102.315 - 0.680ms returns 0x00000000
T25B8 001:103.081 JLINK_HasError()
T25B8 001:103.524 JLINK_WriteReg(R0, 0x08001400)
T25B8 001:103.977 - 0.653ms returns 0
T25B8 001:104.415 JLINK_WriteReg(R1, 0x00000400)
T25B8 001:104.843 - 0.636ms returns 0
T25B8 001:105.316 JLINK_WriteReg(R2, 0x000000FF)
T25B8 001:105.767 - 0.653ms returns 0
T25B8 001:106.206 JLINK_WriteReg(R3, 0x00000000)
T25B8 001:106.633 - 0.628ms returns 0
T25B8 001:107.101 JLINK_WriteReg(R4, 0x00000000)
T25B8 001:107.551 - 0.653ms returns 0
T25B8 001:107.989 JLINK_WriteReg(R5, 0x00000000)
T25B8 001:108.408 - 0.620ms returns 0
T25B8 001:108.846 JLINK_WriteReg(R6, 0x00000000)
T25B8 001:109.323 - 0.678ms returns 0
T25B8 001:109.731 JLINK_WriteReg(R7, 0x00000000)
T25B8 001:110.142 - 0.719ms returns 0
T25B8 001:110.656 JLINK_WriteReg(R8, 0x00000000)
T25B8 001:111.059 - 0.748ms returns 0
T25B8 001:111.636 JLINK_WriteReg(R9, 0x20000134)
T25B8 001:111.997 - 0.554ms returns 0
T25B8 001:112.398 JLINK_WriteReg(R10, 0x00000000)
T25B8 001:112.798 - 0.720ms returns 0
T25B8 001:113.320 JLINK_WriteReg(R11, 0x00000000)
T25B8 001:113.723 - 0.746ms returns 0
T25B8 001:114.264 JLINK_WriteReg(R12, 0x00000000)
T25B8 001:114.669 - 0.605ms returns 0
T25B8 001:115.075 JLINK_WriteReg(R13 (SP), 0x20001000)
T25B8 001:115.595 - 0.721ms returns 0
T25B8 001:116.002 JLINK_WriteReg(R14, 0x20000001)
T25B8 001:116.405 - 0.718ms returns 0
T25B8 001:116.919 JLINK_WriteReg(R15 (PC), 0x20000020)
T25B8 001:117.322 - 0.604ms returns 0
T25B8 001:117.730 JLINK_WriteReg(XPSR, 0x01000000)
T25B8 001:118.253 - 0.723ms returns 0
T25B8 001:118.660 JLINK_WriteReg(MSP, 0x20001000)
T25B8 001:119.063 - 0.727ms returns 0
T25B8 001:119.587 JLINK_WriteReg(PSP, 0x20001000)
T25B8 001:119.992 - 0.614ms returns 0
T25B8 001:120.407 JLINK_WriteReg(CFBP, 0x00000000)
T25B8 001:120.929 - 0.724ms returns 0
T25B8 001:121.337 JLINK_SetBPEx(Addr = 0x20000000, Type = 0xFFFFFFF2)
T25B8 001:121.729 - 0.579ms returns 0x0000000C
T25B8 001:122.111 JLINK_Go()
T25B8 001:122.496   CPU_ReadMem(4 bytes @ 0xE0001000)
T25B8 001:125.307 - 3.343ms
T25B8 001:125.652 JLINK_IsHalted()
T25B8 001:127.769   CPU_ReadMem(2 bytes @ 0x20000000)
T25B8 001:128.683 - 3.274ms returns TRUE
T25B8 001:129.158 JLINK_ReadReg(R15 (PC))
T25B8 001:129.618 - 0.687ms returns 0x20000000
T25B8 001:130.078 JLINK_ClrBPEx(BPHandle = 0x0000000C)
T25B8 001:130.511 - 0.661ms returns 0x00
T25B8 001:130.939 JLINK_ReadReg(R0)
T25B8 001:131.344 - 0.605ms returns 0x00000001
T25B8 001:131.750 JLINK_HasError()
T25B8 001:132.164 JLINK_WriteReg(R0, 0x08001400)
T25B8 001:132.568 - 0.604ms returns 0
T25B8 001:132.978 JLINK_WriteReg(R1, 0x00000400)
T25B8 001:133.384 - 0.615ms returns 0
T25B8 001:133.799 JLINK_WriteReg(R2, 0x000000FF)
T25B8 001:134.202 - 0.604ms returns 0
T25B8 001:134.609 JLINK_WriteReg(R3, 0x00000000)
T25B8 001:135.013 - 0.605ms returns 0
T25B8 001:135.420 JLINK_WriteReg(R4, 0x00000000)
T25B8 001:135.824 - 0.605ms returns 0
